Freq.	V(n018)	V(n019)
1.00000000000000e+01	(4.29689423441978e+00dB,-1.34585673819499e-02Ḟ)	(-1.19737597975456e+02dB,-9.00135279857349e+01Ḟ)
1.04712854805090e+01	(4.29689420429460e+00dB,-1.40928486143961e-02Ḟ)	(-1.19337598005543e+02dB,-9.00141655385547e+01Ḟ)
1.09647819614319e+01	(4.29689417020878e+00dB,-1.47570223781617e-02Ḟ)	(-1.18937598039588e+02dB,-9.00148331380913e+01Ḟ)
1.14815362149688e+01	(4.29689413331963e+00dB,-1.54524974321822e-02Ḟ)	(-1.18537598076431e+02dB,-9.00155322003700e+01Ḟ)
1.20226443461741e+01	(4.29689409282850e+00dB,-1.61807489234058e-02Ḟ)	(-1.18137598116873e+02dB,-9.00162642081468e+01Ḟ)
1.25892541179417e+01	(4.29689404887075e+00dB,-1.69433215148159e-02Ḟ)	(-1.17737598160776e+02dB,-9.00170307140524e+01Ḟ)
1.31825673855641e+01	(4.29689400010255e+00dB,-1.77418326609658e-02Ḟ)	(-1.17337598209484e+02dB,-9.00178333438844e+01Ḟ)
1.38038426460289e+01	(4.29689394658932e+00dB,-1.85779760374495e-02Ḟ)	(-1.16937598262931e+02dB,-9.00186738000548e+01Ḟ)
1.44543977074593e+01	(4.29689388787440e+00dB,-1.94535251322695e-02Ḟ)	(-1.16537598321574e+02dB,-9.00195538651996e+01Ḟ)
1.51356124843621e+01	(4.29689382393911e+00dB,-2.03703370059031e-02Ḟ)	(-1.16137598385431e+02dB,-9.00204754059586e+01Ḟ)
1.58489319246111e+01	(4.29689375423557e+00dB,-2.13303562288335e-02Ḟ)	(-1.15737598455047e+02dB,-9.00214403769330e+01Ḟ)
1.65958690743756e+01	(4.29689367719931e+00dB,-2.23356190041430e-02Ḟ)	(-1.15337598531989e+02dB,-9.00224508248292e+01Ḟ)
1.73780082874938e+01	(4.29689359265384e+00dB,-2.33882574843289e-02Ḟ)	(-1.14937598616430e+02dB,-9.00235088927982e+01Ḟ)
1.81970085860999e+01	(4.29689349987741e+00dB,-2.44905042912588e-02Ḟ)	(-1.14537598709092e+02dB,-9.00246168249787e+01Ḟ)
1.90546071796325e+01	(4.29689339856223e+00dB,-2.56446972490819e-02Ḟ)	(-1.14137598810282e+02dB,-9.00257769712545e+01Ḟ)
1.99526231496888e+01	(4.29689328736018e+00dB,-2.68532843396012e-02Ḟ)	(-1.13737598921347e+02dB,-9.00269917922352e+01Ḟ)
2.08929613085404e+01	(4.29689316532307e+00dB,-2.81188288911102e-02Ḟ)	(-1.13337599043234e+02dB,-9.00282638644723e+01Ḟ)
2.18776162394956e+01	(4.29689303189399e+00dB,-2.94440150112863e-02Ḟ)	(-1.12937599176498e+02dB,-9.00295958859198e+01Ḟ)
2.29086765276778e+01	(4.29689288545325e+00dB,-3.08316532757015e-02Ḟ)	(-1.12537599322758e+02dB,-9.00309906816522e+01Ḟ)
2.39883291901949e+01	(4.29689272475488e+00dB,-3.22846866840488e-02Ḟ)	(-1.12137599483258e+02dB,-9.00324512098514e+01Ḟ)
2.51188643150958e+01	(4.29689254891607e+00dB,-3.38061968965759e-02Ḟ)	(-1.11737599658880e+02dB,-9.00339805680755e+01Ḟ)
2.63026799189539e+01	(4.29689235596162e+00dB,-3.53994107637304e-02Ḟ)	(-1.11337599851596e+02dB,-9.00355819998220e+01Ḟ)
2.75422870333817e+01	(4.29689214425554e+00dB,-3.70677071631786e-02Ḟ)	(-1.10937600063042e+02dB,-9.00372589014001e+01Ḟ)
2.88403150312661e+01	(4.29689191297174e+00dB,-3.88146241581364e-02Ḟ)	(-1.10537600294039e+02dB,-9.00390148291264e+01Ḟ)
3.01995172040202e+01	(4.29689165918667e+00dB,-4.06438664925635e-02Ḟ)	(-1.10137600547511e+02dB,-9.00408535068584e+01Ḟ)
3.16227766016839e+01	(4.29689138171961e+00dB,-4.25593134386066e-02Ḟ)	(-1.09737600824635e+02dB,-9.00427788338826e+01Ḟ)
3.31131121482592e+01	(4.29689107533483e+00dB,-4.45650270135291e-02Ḟ)	(-1.09337601130643e+02dB,-9.00447948931739e+01Ḟ)
3.46736850452532e+01	(4.29689074180119e+00dB,-4.66652605819955e-02Ḟ)	(-1.08937601463764e+02dB,-9.00469059600424e+01Ḟ)
3.63078054770102e+01	(4.29689037590290e+00dB,-4.88644678644624e-02Ḟ)	(-1.08537601829210e+02dB,-9.00491165111884e+01Ḟ)
3.80189396320562e+01	(4.29688997553374e+00dB,-5.11673123676621e-02Ḟ)	(-1.08137602229084e+02dB,-9.00514312341815e+01Ḟ)
3.98107170553498e+01	(4.29688953637456e+00dB,-5.35786772596250e-02Ḟ)	(-1.07737602667701e+02dB,-9.00538550373869e+01Ḟ)
4.16869383470336e+01	(4.29688905523816e+00dB,-5.61036757088164e-02Ḟ)	(-1.07337603148242e+02dB,-9.00563930603575e+01Ḟ)
4.36515832240167e+01	(4.29688852763312e+00dB,-5.87476617094849e-02Ḟ)	(-1.06937603675196e+02dB,-9.00590506847159e+01Ḟ)
4.57088189614876e+01	(4.29688795110550e+00dB,-6.15162414169299e-02Ḟ)	(-1.06537604251010e+02dB,-9.00618335455477e+01Ḟ)
4.78630092322640e+01	(4.29688731894248e+00dB,-6.44152850161625e-02Ḟ)	(-1.06137604882391e+02dB,-9.00647475433320e+01Ḟ)
5.01187233627274e+01	(4.29688662687995e+00dB,-6.74509391492352e-02Ḟ)	(-1.05737605573597e+02dB,-9.00677988564325e+01Ḟ)
5.24807460249774e+01	(4.29688586921044e+00dB,-7.06296399282393e-02Ḟ)	(-1.05337606330328e+02dB,-9.00709939541785e+01Ḟ)
5.49540873857626e+01	(4.29688503873873e+00dB,-7.39581265619925e-02Ḟ)	(-1.04937607159773e+02dB,-9.00743396105613e+01Ḟ)
5.75439937337159e+01	(4.29688413010807e+00dB,-7.74434556246712e-02Ḟ)	(-1.04537608067279e+02dB,-9.00778429185770e+01Ḟ)
6.02559586074359e+01	(4.29688313685925e+00dB,-8.10930159986333e-02Ḟ)	(-1.04137609059296e+02dB,-9.00815113052468e+01Ḟ)
6.30957344480195e+01	(4.29688204848466e+00dB,-8.49145445231508e-02Ḟ)	(-1.03737610146322e+02dB,-9.00853525473462e+01Ḟ)
6.60693448007598e+01	(4.29688085807445e+00dB,-8.89161423818688e-02Ḟ)	(-1.03337611335256e+02dB,-9.00893747878773e+01Ḟ)
6.91830970918939e+01	(4.29687955599059e+00dB,-9.31062922663751e-02Ḟ)	(-1.02937612635723e+02dB,-9.00935865533213e+01Ḟ)
7.24435960074992e+01	(4.29687813027405e+00dB,-9.74938763525391e-02Ḟ)	(-1.02537614059671e+02dB,-9.00979967717073e+01Ḟ)
7.58577575029186e+01	(4.29687657186710e+00dB,-1.02088195127192e-01Ḟ)	(-1.02137615616142e+02dB,-9.01026147915368e+01Ḟ)
7.94328234724284e+01	(4.29687486729917e+00dB,-1.06898987109764e-01Ḟ)	(-1.01737617318591e+02dB,-9.01074504016067e+01Ḟ)
8.31763771102674e+01	(4.29687300292835e+00dB,-1.11936449507209e-01Ḟ)	(-1.01337619180644e+02dB,-9.01125138517706e+01Ḟ)
8.70963589956084e+01	(4.29687096435477e+00dB,-1.17211259850435e-01Ḟ)	(-1.00937621216681e+02dB,-9.01178158746877e+01Ḟ)
9.12010839355913e+01	(4.29686873582293e+00dB,-1.22734598657345e-01Ḟ)	(-1.00537623442439e+02dB,-9.01233677086019e+01Ḟ)
9.54992586021439e+01	(4.29686629864999e+00dB,-1.28518173171599e-01Ḟ)	(-1.00137625876576e+02dB,-9.01291811212035e+01Ḟ)
1.00000000000000e+02	(4.29686363542029e+00dB,-1.34574242226913e-01Ḟ)	(-9.97376285364858e+01dB,-9.01352684346207e+01Ḟ)
1.04712854805090e+02	(4.29686072404783e+00dB,-1.40915642290206e-01Ḟ)	(-9.93376314442270e+01dB,-9.01416425515984e+01Ḟ)
1.09647819614319e+02	(4.29685754386562e+00dB,-1.47555814737525e-01Ḟ)	(-9.89376346204377e+01dB,-9.01483169829129e+01Ḟ)
1.14815362149689e+02	(4.29685406820914e+00dB,-1.54508834419583e-01Ḟ)	(-9.85376380917510e+01dB,-9.01553058760858e+01Ḟ)
1.20226443461742e+02	(4.29685026950195e+00dB,-1.61789439573870e-01Ḟ)	(-9.81376418857086e+01dB,-9.01626240454493e+01Ḟ)
1.25892541179417e+02	(4.29684611901871e+00dB,-1.69413063144746e-01Ḟ)	(-9.77376460309979e+01dB,-9.01702870036277e+01Ḟ)
1.31825673855641e+02	(4.29684158325435e+00dB,-1.77395865575127e-01Ḟ)	(-9.73376505610826e+01dB,-9.01783109944983e+01Ḟ)
1.38038426460289e+02	(4.29683662796770e+00dB,-1.85754769131571e-01Ḟ)	(-9.69376555101584e+01dB,-9.01867130276922e+01Ḟ)
1.44543977074593e+02	(4.29683121401032e+00dB,-1.94507493834668e-01Ḟ)	(-9.65376609173238e+01dB,-9.01955109147109e+01Ḟ)
1.51356124843621e+02	(4.29682529745370e+00dB,-2.03672595061375e-01Ḟ)	(-9.61376668264528e+01dB,-9.02047233067218e+01Ḟ)
1.58489319246112e+02	(4.29681883209291e+00dB,-2.13269502894414e-01Ḟ)	(-9.57376732836904e+01dB,-9.02143697341104e+01Ḟ)
1.65958690743757e+02	(4.29681176612795e+00dB,-2.23318563297718e-01Ḟ)	(-9.53376803407709e+01dB,-9.02244706478689e+01Ḟ)
1.73780082874938e+02	(4.29680404265780e+00dB,-2.33841081196213e-01Ḟ)	(-9.49376880545231e+01dB,-9.02350474628976e+01Ḟ)
1.81970085860999e+02	(4.29679559964862e+00dB,-2.44859365548901e-01Ḟ)	(-9.45376964869017e+01dB,-9.02461226033116e+01Ḟ)
1.90546071796326e+02	(4.29678637081556e+00dB,-2.56396776502359e-01Ḟ)	(-9.41377057041047e+01dB,-9.02577195498374e+01Ḟ)
1.99526231496889e+02	(4.29677627874498e+00dB,-2.68477774724865e-01Ḟ)	(-9.37377157834502e+01dB,-9.02698628894037e+01Ḟ)
2.08929613085405e+02	(4.29676524337494e+00dB,-2.81127973015477e-01Ḟ)	(-9.33377268048955e+01dB,-9.02825783670167e+01Ḟ)
2.18776162394956e+02	(4.29675317307147e+00dB,-2.94374190300387e-01Ḟ)	(-9.29377388599594e+01dB,-9.02958929400373e+01Ḟ)
2.29086765276778e+02	(4.29673996864381e+00dB,-3.08244508123230e-01Ḟ)	(-9.25377520477063e+01dB,-9.03098348349640e+01Ḟ)
2.39883291901950e+02	(4.29672552150818e+00dB,-3.22768329748788e-01Ḟ)	(-9.21377664765814e+01dB,-9.03244336068440e+01Ḟ)
2.51188643150959e+02	(4.29670971176672e+00dB,-3.37976442001178e-01Ḟ)	(-9.17377822663301e+01dB,-9.03397202014321e+01Ḟ)
2.63026799189540e+02	(4.29669240861273e+00dB,-3.53901079963366e-01Ḟ)	(-9.13377995475921e+01dB,-9.03557270202269e+01Ḟ)
2.75422870333818e+02	(4.29667346870882e+00dB,-3.70575994670146e-01Ḟ)	(-9.09378184635213e+01dB,-9.03724879885162e+01Ḟ)
2.88403150312662e+02	(4.29665273205110e+00dB,-3.88036523933457e-01Ḟ)	(-9.05378391739201e+01dB,-9.03900386265716e+01Ḟ)
3.01995172040203e+02	(4.29663002542574e+00dB,-4.06319666437232e-01Ḟ)	(-9.01378618517813e+01dB,-9.04084161241274e+01Ḟ)
3.16227766016840e+02	(4.29660516091970e+00dB,-4.25464159251841e-01Ḟ)	(-8.97378866847756e+01dB,-9.04276594182997e+01Ḟ)
3.31131121482593e+02	(4.29657792609995e+00dB,-4.45510558922400e-01Ḟ)	(-8.93379138850697e+01dB,-9.04478092750986e+01Ḟ)
3.46736850452534e+02	(4.29654809475486e+00dB,-4.66501326272394e-01Ḟ)	(-8.89379436785834e+01dB,-9.04689083746735e+01Ḟ)
3.63078054770103e+02	(4.29651541337595e+00dB,-4.88480915102452e-01Ḟ)	(-8.85379763185049e+01dB,-9.04910014004743e+01Ḟ)
3.80189396320563e+02	(4.29647960768691e+00dB,-5.11495864930729e-01Ḟ)	(-8.81380120787592e+01dB,-9.05141351324773e+01Ḟ)
3.98107170553500e+02	(4.29644037596208e+00dB,-5.35594897953784e-01Ḟ)	(-8.77380512606864e+01dB,-9.05383585446539e+01Ḟ)
4.16869383470338e+02	(4.29639738549004e+00dB,-5.60829020401687e-01Ḟ)	(-8.73380941965751e+01dB,-9.05637229068555e+01Ḟ)
4.36515832240169e+02	(4.29635027457317e+00dB,-5.87251628452500e-01Ḟ)	(-8.69381412476593e+01dB,-9.05902818912822e+01Ḟ)
4.57088189614878e+02	(4.29629864462160e+00dB,-6.14918618908152e-01Ḟ)	(-8.65381928120200e+01dB,-9.06180916837445e+01Ḟ)
4.78630092322641e+02	(4.29624205918148e+00dB,-6.43888504794120e-01Ḟ)	(-8.61382493255530e+01dB,-9.06472110998647e+01Ḟ)
5.01187233627275e+02	(4.29618004070654e+00dB,-6.74222536088688e-01Ḟ)	(-8.57383112651924e+01dB,-9.06777017064482e+01Ḟ)
5.24807460249776e+02	(4.29611206409384e+00dB,-7.05984825765173e-01Ḟ)	(-8.53383791553696e+01dB,-9.07096279481869e+01Ḟ)
5.49540873857628e+02	(4.29603755512657e+00dB,-7.39242481337304e-01Ḟ)	(-8.49384535695645e+01dB,-9.07430572799023e+01Ḟ)
5.75439937337161e+02	(4.29595588416304e+00dB,-7.74065742109445e-01Ḟ)	(-8.45385351366106e+01dB,-9.07780603045266e+01Ḟ)
6.02559586074362e+02	(4.29586636273380e+00dB,-8.10528122319774e-01Ḟ)	(-8.41386245440905e+01dB,-9.08147109170006e+01Ḟ)
6.30957344480197e+02	(4.29576823289490e+00dB,-8.48706560373894e-01Ḟ)	(-8.37387225489750e+01dB,-9.08530864543105e+01Ḟ)
6.60693448007600e+02	(4.29566066807281e+00dB,-8.88681574349878e-01Ḟ)	(-8.33388299767700e+01dB,-9.08932678518213e+01Ḟ)
6.91830970918941e+02	(4.29554275933988e+00dB,-9.30537423975135e-01Ḟ)	(-8.29389477352312e+01dB,-9.09353398061258e+01Ḟ)
7.24435960074995e+02	(4.29541351356349e+00dB,-9.74362279233889e-01Ḟ)	(-8.25390768162053e+01dB,-9.09793909445603e+01Ḟ)
7.58577575029189e+02	(4.29527184024411e+00dB,-1.02024839579344e+00Ḟ)	(-8.21392183087804e+01dB,-9.10255140015819e+01Ḟ)
7.94328234724287e+02	(4.29511654673026e+00dB,-1.06829229738804e+00Ḟ)	(-8.17393734040584e+01dB,-9.10738060021466e+01Ḟ)
8.31763771102677e+02	(4.29494632584600e+00dB,-1.11859496531375e+00Ḟ)	(-8.13395434075144e+01dB,-9.11243684522389e+01Ḟ)
8.70963589956087e+02	(4.29475974597123e+00dB,-1.17126203514708e+00Ḟ)	(-8.09397297489008e+01dB,-9.11773075366782e+01Ḟ)
9.12010839355916e+02	(4.29455523916237e+00dB,-1.22640400078605e+00Ḟ)	(-8.05399339941103e+01dB,-9.12327343242878e+01Ḟ)
9.54992586021443e+02	(4.29433108963299e+00dB,-1.28413642587452e+00Ḟ)	(-8.01401578566770e+01dB,-9.12907649804980e+01Ḟ)
1.00000000000001e+03	(4.29408541768612e+00dB,-1.34458016265163e+00Ḟ)	(-7.97404032138237e+01dB,-9.13515209874367e+01Ḟ)
1.04712854805091e+03	(4.29381616333587e+00dB,-1.40786157819916e+00Ḟ)	(-7.93406721228184e+01dB,-9.14151293714496e+01Ḟ)
1.09647819614319e+03	(4.29352107626010e+00dB,-1.47411278802681e+00Ḟ)	(-7.89409668309963e+01dB,-9.14817229380358e+01Ḟ)
1.14815362149689e+03	(4.29319769125057e+00dB,-1.54347189687972e+00Ḟ)	(-7.85412898002834e+01dB,-9.15514405140499e+01Ḟ)
1.20226443461742e+03	(4.29284331072909e+00dB,-1.61608324657438e+00Ḟ)	(-7.81416437246494e+01dB,-9.16244271969895e+01Ḟ)
1.25892541179418e+03	(4.29245498552808e+00dB,-1.69209767057644e+00Ḟ)	(-7.77420315492943e+01dB,-9.17008346110967e+01Ḟ)
1.31825673855642e+03	(4.29202948609788e+00dB,-1.77167275497556e+00Ḟ)	(-7.73424564994042e+01dB,-9.17808211698994e+01Ḟ)
1.38038426460290e+03	(4.29156328568516e+00dB,-1.85497310535091e+00Ḟ)	(-7.69429220969319e+01dB,-9.18645523447348e+01Ḟ)
1.44543977074594e+03	(4.29105252498895e+00dB,-1.94217061898272e+00Ḟ)	(-7.65434321958956e+01dB,-9.19522009386485e+01Ḟ)
1.51356124843622e+03	(4.29049299042627e+00dB,-2.03344476159383e+00Ḟ)	(-7.61439910040631e+01dB,-9.20439473649257e+01Ḟ)
1.58489319246113e+03	(4.28988007310339e+00dB,-2.12898284783009e+00Ḟ)	(-7.57446031239242e+01dB,-9.21399799294012e+01Ḟ)
1.65958690743757e+03	(4.28920874496083e+00dB,-2.22898032427728e+00Ḟ)	(-7.53452735764839e+01dB,-9.22404951153932e+01Ḟ)
1.73780082874939e+03	(4.28847351194891e+00dB,-2.33364105387002e+00Ḟ)	(-7.49460078480172e+01dB,-9.23456978700900e+01Ḟ)
1.81970085861000e+03	(4.28766838217568e+00dB,-2.44317760005789e+00Ḟ)	(-7.45468119218442e+01dB,-9.24558018907550e+01Ḟ)
1.90546071796326e+03	(4.28678681804000e+00dB,-2.55781150910052e+00Ḟ)	(-7.41476923261107e+01dB,-9.25710299091633e+01Ḟ)
1.99526231496890e+03	(4.28582169344866e+00dB,-2.67777358835935e+00Ḟ)	(-7.37486561764744e+01dB,-9.26916139720612e+01Ḟ)
2.08929613085406e+03	(4.28476524060040e+00dB,-2.80330417833025e+00Ḟ)	(-7.33497112292136e+01dB,-9.28177957154764e+01Ḟ)
2.18776162394957e+03	(4.28360900553628e+00dB,-2.93465341569888e+00Ḟ)	(-7.29508659255558e+01dB,-9.29498266300950e+01Ḟ)
2.29086765276779e+03	(4.28234378400263e+00dB,-3.07208148448118e+00Ḟ)	(-7.25521294556792e+01dB,-9.30879683148034e+01Ḟ)
2.39883291901951e+03	(4.28095956847904e+00dB,-3.21585885178636e+00Ḟ)	(-7.21535118115328e+01dB,-9.32324927149151e+01Ḟ)
2.51188643150960e+03	(4.27944548813282e+00dB,-3.36626648449533e+00Ḟ)	(-7.17550238467109e+01dB,-9.33836823413847e+01Ḟ)
2.63026799189540e+03	(4.27778973654255e+00dB,-3.52359604267899e+00Ḟ)	(-7.13566773485368e+01dB,-9.35418304668013e+01Ḟ)
2.75422870333819e+03	(4.27597951393833e+00dB,-3.68815004513263e+00Ḟ)	(-7.09584850956058e+01dB,-9.37072412935931e+01Ḟ)
2.88403150312663e+03	(4.27400094912342e+00dB,-3.86024200215287e+00Ḟ)	(-7.05604609356186e+01dB,-9.38802300894995e+01Ḟ)
3.01995172040204e+03	(4.27183903527664e+00dB,-4.04019651016762e+00Ḟ)	(-7.01626198493018e+01dB,-9.40611232849496e+01Ḟ)
3.16227766016841e+03	(4.26947755377731e+00dB,-4.22834930265426e+00Ḟ)	(-6.97649780262704e+01dB,-9.42502585267980e+01Ḟ)
3.31131121482594e+03	(4.26689899744985e+00dB,-4.42504725151296e+00Ḟ)	(-6.93675529414284e+01dB,-9.44479846825240e+01Ḟ)
3.46736850452535e+03	(4.26408450968405e+00dB,-4.63064831283558e+00Ḟ)	(-6.89703634154469e+01dB,-9.46546617888974e+01Ḟ)
3.63078054770105e+03	(4.26101380212969e+00dB,-4.84552141137150e+00Ḟ)	(-6.85734296966141e+01dB,-9.48706609393466e+01Ḟ)
3.80189396320565e+03	(4.25766509251624e+00dB,-5.07004625790153e+00Ḟ)	(-6.81767735224982e+01dB,-9.50963641042643e+01Ḟ)
3.98107170553501e+03	(4.25401504515468e+00dB,-5.30461309447718e+00Ḟ)	(-6.77804181788583e+01dB,-9.53321638792248e+01Ḟ)
4.16869383470339e+03	(4.25003871341976e+00dB,-5.54962236340879e+00Ḟ)	(-6.73843885564953e+01dB,-9.55784631569621e+01Ḟ)
4.36515832240170e+03	(4.24570950074015e+00dB,-5.80548429701891e+00Ḟ)	(-6.69887111895035e+01dB,-9.58356747201324e+01Ḟ)
4.57088189614880e+03	(4.24099912519709e+00dB,-6.07261842731689e+00Ḟ)	(-6.65934142898110e+01dB,-9.61042207540330e+01Ḟ)
4.78630092322643e+03	(4.23587760649933e+00dB,-6.35145301692269e+00Ḟ)	(-6.61985277592265e+01dB,-9.63845322805925e+01Ḟ)
5.01187233627277e+03	(4.23031327618706e+00dB,-6.64242441602012e+00Ḟ)	(-6.58040831781246e+01dB,-9.66770485184869e+01Ḟ)
5.24807460249778e+03	(4.22427280601052e+00dB,-6.94597635411810e+00Ḟ)	(-6.54101137758081e+01dB,-9.69822161780897e+01Ḟ)
5.49540873857630e+03	(4.21772126425084e+00dB,-7.26255918038725e+00Ḟ)	(-6.50166543727586e+01dB,-9.73004887051081e+01Ḟ)
5.75439937337163e+03	(4.21062221384238e+00dB,-7.59262907231337e+00Ḟ)	(-6.46237412808992e+01dB,-9.76323254927146e+01Ḟ)
6.02559586074364e+03	(4.20293784461291e+00dB,-7.93664723961253e+00Ḟ)	(-6.42314121695286e+01dB,-9.79781910891016e+01Ḟ)
6.30957344480200e+03	(4.19462914396215e+00dB,-8.29507915855308e+00Ḟ)	(-6.38397058925840e+01dB,-9.83385544357368e+01Ḟ)
6.60693448007603e+03	(4.18565612599757e+00dB,-8.66839388079368e+00Ḟ)	(-6.34486622571896e+01dB,-9.87138881804509e+01Ḟ)
6.91830970918944e+03	(4.17597810338509e+00dB,-9.05706347123476e+00Ḟ)	(-6.30583217492075e+01dB,-9.91046681200617e+01Ḟ)
7.24435960074998e+03	(4.16555402149524e+00dB,-9.46156263968034e+00Ḟ)	(-6.26687251961847e+01dB,-9.95113728373061e+01Ḟ)
7.58577575029192e+03	(4.15434284467495e+00dB,-9.88236864234467e+00Ḟ)	(-6.22799133778408e+01dB,-9.99344836084540e+01Ḟ)
7.94328234724290e+03	(4.14230400445672e+00dB,-1.03199615392605e+01Ḟ)	(-6.18919265742588e+01dB,-1.00374484667605e+02Ḟ)
8.31763771102680e+03	(4.12939790181492e+00dB,-1.07748249034281e+01Ḟ)	(-6.15048040596474e+01dB,-1.00831863923940e+02Ḟ)
8.70963589956090e+03	(4.11558645713755e+00dB,-1.12474470848655e+01Ḟ)	(-6.11185835479832e+01dB,-1.01307114235052e+02Ḟ)
9.12010839355920e+03	(4.10083370842726e+00dB,-1.17383231368303e+01Ḟ)	(-6.07333005900024e+01dB,-1.01800735344099e+02Ḟ)
9.54992586021446e+03	(4.08510643805302e+00dB,-1.22479575120447e+01Ḟ)	(-6.03489879412051e+01dB,-1.02313236588658e+02Ḟ)
1.00000000000001e+04	(4.06837481291814e+00dB,-1.27768676314167e+01Ḟ)	(-5.99656749159973e+01dB,-1.02845140483994e+02Ḟ)
1.04712854805091e+04	(4.05061302005815e+00dB,-1.33255884159639e+01Ḟ)	(-5.95833867459507e+01dB,-1.03396987271910e+02Ḟ)
1.09647819614320e+04	(4.03179987442505e+00dB,-1.38946778536858e+01Ḟ)	(-5.92021439654235e+01dB,-1.03969340506866e+02Ḟ)
1.14815362149690e+04	(4.01191936538818e+00dB,-1.44847236457273e+01Ḟ)	(-5.88219618580156e+01dB,-1.04562793723940e+02Ḟ)
1.20226443461743e+04	(3.99096111201227e+00dB,-1.50963509414457e+01Ḟ)	(-5.84428499938032e+01dB,-1.05177978198474e+02Ḟ)
1.25892541179418e+04	(3.96892069841695e+00dB,-1.57302311285896e+01Ḟ)	(-5.80648118860554e+01dB,-1.05815571763524e+02Ḟ)
1.31825673855642e+04	(3.94579984674030e+00dB,-1.63870915970195e+01Ḟ)	(-5.76878448099161e+01dB,-1.06476308603485e+02Ḟ)
1.38038426460290e+04	(3.92160639798024e+00dB,-1.70677263416153e+01Ḟ)	(-5.73119398127772e+01dB,-1.07160989889587e+02Ḟ)
1.44543977074594e+04	(3.89635407322164e+00dB,-1.77730072175341e+01Ḟ)	(-5.69370819438241e+01dB,-1.07870495070018e+02Ḟ)
1.51356124843623e+04	(3.87006197903080e+00dB,-1.85038956119835e+01Ḟ)	(-5.65632507389497e+01dB,-1.08605793578584e+02Ḟ)
1.58489319246113e+04	(3.84275385797499e+00dB,-1.92614542550260e+01Ḟ)	(-5.61904209600348e+01dB,-1.09367956683959e+02Ḟ)
1.65958690743758e+04	(3.81445705909506e+00dB,-2.00468588630075e+01Ḟ)	(-5.58185636136993e+01dB,-1.10158169173018e+02Ḟ)
1.73780082874940e+04	(3.78520123671410e+00dB,-2.08614092951418e+01Ḟ)	(-5.54476472410464e+01dB,-1.10977740547395e+02Ḟ)
1.81970085861001e+04	(3.75501679695900e+00dB,-2.17065399097731e+01Ḟ)	(-5.50776394588959e+01dB,-1.11828115420440e+02Ḟ)
1.90546071796327e+04	(3.72393310402757e+00dB,-2.25838288335686e+01Ḟ)	(-5.47085087403129e+01dB,-1.12710882826374e+02Ḟ)
1.99526231496890e+04	(3.69197650018796e+00dB,-2.34950059043166e+01Ḟ)	(-5.43402263802515e+01dB,-1.13627784202372e+02Ḟ)
2.08929613085406e+04	(3.65916815813079e+00dB,-2.44419591136588e+01Ḟ)	(-5.39727686274660e+01dB,-1.14580719869575e+02Ḟ)
2.18776162394958e+04	(3.62552184162528e+00dB,-2.54267394564505e+01Ḟ)	(-5.36061189064827e+01dB,-1.15571753919461e+02Ḟ)
2.29086765276780e+04	(3.59104159657550e+00dB,-2.64515641828543e+01Ḟ)	(-5.32402701072529e+01dB,-1.16603117501634e+02Ḟ)
