Freq.	V(i_sns)	V(v_sns)
1.00000000000000e+01	(-5.97393475529909e+01dB,-9.01235085867744e+01Ḟ)	(4.29686661270877e+00dB,-1.22808981887333e-01Ḟ)
1.04712854805090e+01	(-5.93393494471237e+01dB,-9.01293293559679e+01Ḟ)	(4.29686471747089e+00dB,-1.28596779704550e-01Ḟ)
1.09647819614319e+01	(-5.89393512193211e+01dB,-9.01354245699502e+01Ḟ)	(4.29686294406165e+00dB,-1.34657468415544e-01Ḟ)
1.14815362149688e+01	(-5.85393534771825e+01dB,-9.01418066772774e+01Ḟ)	(4.29686068487164e+00dB,-1.41003423343162e-01Ḟ)
1.20226443461741e+01	(-5.81393558447761e+01dB,-9.01484899160375e+01Ḟ)	(4.29685831582125e+00dB,-1.47648805890833e-01Ḟ)
1.25892541179417e+01	(-5.77393583415818e+01dB,-9.01554880750141e+01Ḟ)	(4.29685581741821e+00dB,-1.54607324543706e-01Ḟ)
1.31825673855641e+01	(-5.73393612868448e+01dB,-9.01628159809130e+01Ḟ)	(4.29685287040387e+00dB,-1.61893721924364e-01Ḟ)
1.38038426460289e+01	(-5.69393643091956e+01dB,-9.01704890493647e+01Ḟ)	(4.29684984613282e+00dB,-1.69523325617845e-01Ḟ)
1.44543977074593e+01	(-5.65393677316104e+01dB,-9.01785240983132e+01Ḟ)	(4.29684642161260e+00dB,-1.77512861372480e-01Ḟ)
1.51356124843621e+01	(-5.61393715823775e+01dB,-9.01869375169693e+01Ḟ)	(4.29684256853706e+00dB,-1.85878621858499e-01Ḟ)
1.58489319246111e+01	(-5.57393756959603e+01dB,-9.01957474075862e+01Ḟ)	(4.29683845242308e+00dB,-1.94638608239102e-01Ḟ)
1.65958690743756e+01	(-5.53393801084231e+01dB,-9.02049727901203e+01Ḟ)	(4.29683403718514e+00dB,-2.03811734615852e-01Ḟ)
1.73780082874938e+01	(-5.49393851535354e+01dB,-9.02146326499222e+01Ḟ)	(4.29682898903006e+00dB,-2.13416875495376e-01Ḟ)
1.81970085860999e+01	(-5.45393905772883e+01dB,-9.02247479415595e+01Ḟ)	(4.29682356194105e+00dB,-2.23474869378145e-01Ḟ)
1.90546071796325e+01	(-5.41393966226130e+01dB,-9.02353398848921e+01Ḟ)	(4.29681751295859e+00dB,-2.34006814585663e-01Ḟ)
1.99526231496888e+01	(-5.37394031430110e+01dB,-9.02464309955531e+01Ḟ)	(4.29681098855014e+00dB,-2.45035099485612e-01Ḟ)
2.08929613085404e+01	(-5.33394101937646e+01dB,-9.02580446971539e+01Ḟ)	(4.29680393339956e+00dB,-2.56583014424338e-01Ḟ)
2.18776162394956e+01	(-5.29394181312559e+01dB,-9.02702055152793e+01Ḟ)	(4.29679599108741e+00dB,-2.68674945442557e-01Ḟ)
2.29086765276778e+01	(-5.25394265296097e+01dB,-9.02829404488906e+01Ḟ)	(4.29678758744810e+00dB,-2.81337745379574e-01Ḟ)
2.39883291901949e+01	(-5.21394360528671e+01dB,-9.02962744752993e+01Ḟ)	(4.29677805839581e+00dB,-2.94596238538270e-01Ḟ)
2.51188643150958e+01	(-5.17394463865244e+01dB,-9.03102372485466e+01Ḟ)	(4.29676771838507e+00dB,-3.08479918740014e-01Ḟ)
2.63026799189539e+01	(-5.13394575196685e+01dB,-9.03248578924695e+01Ḟ)	(4.29675657827550e+00dB,-3.23017742050696e-01Ḟ)
2.75422870333817e+01	(-5.09394703384997e+01dB,-9.03401674633895e+01Ḟ)	(4.29674375180762e+00dB,-3.38240589112964e-01Ḟ)
2.88403150312661e+01	(-5.05394837629600e+01dB,-9.03561989380581e+01Ḟ)	(4.29673031897507e+00dB,-3.54181252719605e-01Ḟ)
3.01995172040202e+01	(-5.01394986990654e+01dB,-9.03729856523845e+01Ḟ)	(4.29671537369087e+00dB,-3.70872876151125e-01Ḟ)
3.16227766016839e+01	(-4.97395149765579e+01dB,-9.03905634197576e+01Ḟ)	(4.29669908613565e+00dB,-3.88351071089509e-01Ḟ)
3.31131121482592e+01	(-4.93395330332565e+01dB,-9.04089692164448e+01Ḟ)	(4.29668101840538e+00dB,-4.06652602586742e-01Ḟ)
3.46736850452532e+01	(-4.89395527220194e+01dB,-9.04282430783643e+01Ḟ)	(4.29666131754875e+00dB,-4.25817285391579e-01Ḟ)
3.63078054770102e+01	(-4.85395743098700e+01dB,-9.04484246974410e+01Ḟ)	(4.29663971644016e+00dB,-4.45884579834776e-01Ḟ)
3.80189396320562e+01	(-4.81395979792316e+01dB,-9.04695570863734e+01Ḟ)	(4.29661603254479e+00dB,-4.66897256105042e-01Ḟ)
3.98107170553498e+01	(-4.77396241301230e+01dB,-9.04916856506096e+01Ḟ)	(4.29658986572109e+00dB,-4.88900465710391e-01Ḟ)
4.16869383470336e+01	(-4.73396522909315e+01dB,-9.05148571743330e+01Ḟ)	(4.29656168744756e+00dB,-5.11940726926238e-01Ḟ)
4.36515832240167e+01	(-4.69396833943804e+01dB,-9.05391204189162e+01Ḟ)	(4.29653056485406e+00dB,-5.36066522682311e-01Ḟ)
4.57088189614876e+01	(-4.65397178999889e+01dB,-9.05645262941413e+01Ḟ)	(4.29649603826011e+00dB,-5.61328471194169e-01Ḟ)
4.78630092322640e+01	(-4.61397552141658e+01dB,-9.05911307478377e+01Ḟ)	(4.29645870108044e+00dB,-5.87782214982553e-01Ḟ)
5.01187233627274e+01	(-4.57397962430673e+01dB,-9.06189876859921e+01Ḟ)	(4.29641764696565e+00dB,-6.15481340335836e-01Ḟ)
5.24807460249774e+01	(-4.53398415349970e+01dB,-9.06481574722852e+01Ḟ)	(4.29637232740049e+00dB,-6.44485876165281e-01Ḟ)
5.49540873857626e+01	(-4.49398910771836e+01dB,-9.06787011744095e+01Ḟ)	(4.29632275492427e+00dB,-6.74856539616570e-01Ḟ)
5.75439937337159e+01	(-4.45399450916948e+01dB,-9.07106845122078e+01Ḟ)	(4.29626870721542e+00dB,-7.06658683462067e-01Ḟ)
6.02559586074359e+01	(-4.41400046269452e+01dB,-9.07441736687637e+01Ḟ)	(4.29620913558116e+00dB,-7.39958106413587e-01Ḟ)
6.30957344480195e+01	(-4.37400696020773e+01dB,-9.07792423836790e+01Ḟ)	(4.29614412057438e+00dB,-7.74828145583959e-01Ḟ)
6.60693448007598e+01	(-4.33401410574568e+01dB,-9.08159627592097e+01Ḟ)	(4.29607262149594e+00dB,-8.11340481768871e-01Ḟ)
6.91830970918939e+01	(-4.29402194007854e+01dB,-9.08544123536862e+01Ḟ)	(4.29599423027889e+00dB,-8.49572231974386e-01Ḟ)
7.24435960074992e+01	(-4.25403054963769e+01dB,-9.08946732268184e+01Ḟ)	(4.29590808220939e+00dB,-8.89604993782365e-01Ḟ)
7.58577575029186e+01	(-4.21403995774693e+01dB,-9.09368311857589e+01Ḟ)	(4.29581394361149e+00dB,-9.31524090437274e-01Ḟ)
7.94328234724284e+01	(-4.17405027379392e+01dB,-9.09809747903174e+01Ḟ)	(4.29571072012913e+00dB,-9.75417575033054e-01Ḟ)
8.31763771102674e+01	(-4.13406161491125e+01dB,-9.10271975078648e+01Ḟ)	(4.29559723991109e+00dB,-1.02137838434117e+00Ḟ)
8.70963589956084e+01	(-4.09407402754995e+01dB,-9.10755969659364e+01Ḟ)	(4.29547303787207e+00dB,-1.06950359029015e+00Ḟ)
9.12010839355913e+01	(-4.05408764662631e+01dB,-9.11262762231929e+01Ḟ)	(4.29533676421935e+00dB,-1.11989566974630e+00Ḟ)
9.54992586021439e+01	(-4.01410255809790e+01dB,-9.11793430990412e+01Ḟ)	(4.29518755868725e+00dB,-1.17266183290329e+00Ḟ)
1.00000000000000e+02	(-3.97411892730196e+01dB,-9.12349085446183e+01Ḟ)	(4.29502376714789e+00dB,-1.22791239297467e+00Ḟ)
1.04712854805090e+02	(-3.93413684346823e+01dB,-9.12930899386026e+01Ḟ)	(4.29484449647637e+00dB,-1.28576406064816e+00Ḟ)
1.09647819614319e+02	(-3.89415651750453e+01dB,-9.13540103401088e+01Ḟ)	(4.29464763668784e+00dB,-1.34633919556972e+00Ḟ)
1.14815362149689e+02	(-3.85417806719671e+01dB,-9.14177999435210e+01Ḟ)	(4.29443200893027e+00dB,-1.40976725968938e+00Ḟ)
1.20226443461742e+02	(-3.81420171397707e+01dB,-9.14845917465055e+01Ḟ)	(4.29419539779230e+00dB,-1.47618048372634e+00Ḟ)
1.25892541179417e+02	(-3.77422763791241e+01dB,-9.15545265195418e+01Ḟ)	(4.29393600141302e+00dB,-1.54571883506861e+00Ḟ)
1.31825673855641e+02	(-3.73425603983117e+01dB,-9.16277548741654e+01Ḟ)	(4.29365181020080e+00dB,-1.61853208431571e+00Ḟ)
1.38038426460289e+02	(-3.69428719815369e+01dB,-9.17044279215074e+01Ḟ)	(4.29334003851890e+00dB,-1.69477046203995e+00Ḟ)
1.44543977074593e+02	(-3.65432132791603e+01dB,-9.17847094697655e+01Ḟ)	(4.29299853443564e+00dB,-1.77459685438117e+00Ḟ)
1.51356124843621e+02	(-3.61435878602954e+01dB,-9.18687660985190e+01Ḟ)	(4.29262372711491e+00dB,-1.85817687541246e+00Ḟ)
1.58489319246112e+02	(-3.57439981641444e+01dB,-9.19567779860109e+01Ḟ)	(4.29221317546532e+00dB,-1.94568969238106e+00Ḟ)
1.65958690743757e+02	(-3.53444481959403e+01dB,-9.20489285210765e+01Ḟ)	(4.29176287218229e+00dB,-2.03731763547536e+00Ḟ)
1.73780082874938e+02	(-3.49449414174811e+01dB,-9.21454121583629e+01Ḟ)	(4.29126935319575e+00dB,-2.13325405082143e+00Ḟ)
1.81970085860999e+02	(-3.45454823348796e+01dB,-9.22464301040351e+01Ḟ)	(4.29072810990098e+00dB,-2.23369898381750e+00Ḟ)
1.90546071796326e+02	(-3.41460752261207e+01dB,-9.23521957675069e+01Ḟ)	(4.29013486157952e+00dB,-2.33886462841594e+00Ḟ)
1.99526231496889e+02	(-3.37467252036231e+01dB,-9.24629315400004e+01Ḟ)	(4.28948449281442e+00dB,-2.44897210310068e+00Ḟ)
2.08929613085405e+02	(-3.33474377991972e+01dB,-9.25788688554114e+01Ḟ)	(4.28877146850619e+00dB,-2.56425150904976e+00Ḟ)
2.18776162394956e+02	(-3.29482189212360e+01dB,-9.27002491644285e+01Ḟ)	(4.28798987665414e+00dB,-2.68494290142763e+00Ḟ)
2.29086765276778e+02	(-3.25490751697284e+01dB,-9.28273277419529e+01Ḟ)	(4.28713311331196e+00dB,-2.81130009384070e+00Ḟ)
2.39883291901950e+02	(-3.21500138981608e+01dB,-9.29603677942230e+01Ḟ)	(4.28619382065225e+00dB,-2.94358476236968e+00Ḟ)
2.51188643150959e+02	(-3.17510427836902e+01dB,-9.30996484188319e+01Ḟ)	(4.28516431675664e+00dB,-3.08207440232793e+00Ḟ)
2.63026799189540e+02	(-3.13521708199246e+01dB,-9.32454571274710e+01Ḟ)	(4.28403560279452e+00dB,-3.22705484761471e+00Ḟ)
2.75422870333818e+02	(-3.09534071995433e+01dB,-9.33980993594790e+01Ḟ)	(4.28279848035858e+00dB,-3.37882978069383e+00Ḟ)
2.88403150312662e+02	(-3.05547624603436e+01dB,-9.35578873679213e+01Ḟ)	(4.28144240536935e+00dB,-3.53770961494562e+00Ḟ)
3.01995172040203e+02	(-3.01562479739192e+01dB,-9.37251554050962e+01Ḟ)	(4.27995599934304e+00dB,-3.70402667627281e+00Ḟ)
3.16227766016840e+02	(-2.97578761274081e+01dB,-9.39002450406528e+01Ḟ)	(4.27832686758578e+00dB,-3.87812051713063e+00Ḟ)
3.31131121482593e+02	(-2.93596606647821e+01dB,-9.40835177615198e+01Ḟ)	(4.27654125783951e+00dB,-4.06035051216605e+00Ḟ)
3.46736850452534e+02	(-2.89616164946931e+01dB,-9.42753482417850e+01Ḟ)	(4.27458425236549e+00dB,-4.25108912360887e+00Ḟ)
3.63078054770103e+02	(-2.85637600185184e+01dB,-9.44761274964556e+01Ḟ)	(4.27243943982228e+00dB,-4.45072505035882e+00Ḟ)
3.80189396320563e+02	(-2.81661090141466e+01dB,-9.46862662212159e+01Ḟ)	(4.27008903139455e+00dB,-4.65966656280363e+00Ḟ)
3.98107170553500e+02	(-2.77686832385667e+01dB,-9.49061876772413e+01Ḟ)	(4.26751325811221e+00dB,-4.87833438249750e+00Ḟ)
4.16869383470338e+02	(-2.73715039973933e+01dB,-9.51363363835966e+01Ḟ)	(4.26469080122295e+00dB,-5.10717036914746e+00Ḟ)
4.36515832240169e+02	(-2.69745947111084e+01dB,-9.53771748850060e+01Ḟ)	(4.26159822583937e+00dB,-5.34663428277744e+00Ḟ)
4.57088189614878e+02	(-2.65779811319501e+01dB,-9.56291829338595e+01Ḟ)	(4.25820976392806e+00dB,-5.59720295976774e+00Ḟ)
4.78630092322641e+02	(-2.61816911760221e+01dB,-9.58928604595489e+01Ḟ)	(4.25449748206573e+00dB,-5.85937327605271e+00Ḟ)
5.01187233627275e+02	(-2.57857554888742e+01dB,-9.61687274577858e+01Ḟ)	(4.25043071571252e+00dB,-6.13366202991438e+00Ḟ)
5.24807460249776e+02	(-2.53902075225169e+01dB,-9.64573237911993e+01Ḟ)	(4.24597599203568e+00dB,-6.42060573579414e+00Ḟ)
5.49540873857628e+02	(-2.49950837982733e+01dB,-9.67592097927570e+01Ḟ)	(4.24109676688104e+00dB,-6.72076122063390e+00Ḟ)
5.75439937337161e+02	(-2.46004242313768e+01dB,-9.70749660979886e+01Ḟ)	(4.23575309998198e+00dB,-7.03470544860267e+00Ḟ)
6.02559586074362e+02	(-2.42062723147877e+01dB,-9.74051949573853e+01Ḟ)	(4.22990147093006e+00dB,-7.36303682573339e+00Ḟ)
6.30957344480197e+02	(-2.38126755231756e+01dB,-9.77505186821758e+01Ḟ)	(4.22349437495990e+00dB,-7.70637363752187e+00Ḟ)
6.60693448007600e+02	(-2.34196856168361e+01dB,-9.81115811240336e+01Ḟ)	(4.21648001877684e+00dB,-8.06535552003965e+00Ḟ)
6.91830970918941e+02	(-2.30273590138599e+01dB,-9.84890463641908e+01Ḟ)	(4.20880194810788e+00dB,-8.44064214013598e+00Ḟ)
7.24435960074995e+02	(-2.26357571140978e+01dB,-9.88835995530943e+01Ḟ)	(4.20039872342979e+00dB,-8.83291402568695e+00Ḟ)
7.58577575029189e+02	(-2.22449467547572e+01dB,-9.92959448466624e+01Ḟ)	(4.19120346403555e+00dB,-9.24287049199918e+00Ḟ)
7.94328234724287e+02	(-2.18550006209216e+01dB,-9.97268055956063e+01Ḟ)	(4.18114343714570e+00dB,-9.67122982087233e+00Ḟ)
8.31763771102677e+02	(-2.14659976749111e+01dB,-1.00176923626127e+02Ḟ)	(4.17013962814315e+00dB,-1.01187285304711e+01Ḟ)
8.70963589956087e+02	(-2.10780237000767e+01dB,-1.00647057129599e+02Ḟ)	(4.15810619633505e+00dB,-1.05861192537350e+01Ḟ)
9.12010839355916e+02	(-2.06911716818854e+01dB,-1.01137979550239e+02Ḟ)	(4.14495009338065e+00dB,-1.10741696141586e+01Ḟ)
9.54992586021443e+02	(-2.03055424085429e+01dB,-1.01650477534025e+02Ḟ)	(4.13057046213495e+00dB,-1.15836601624054e+01Ḟ)
1.00000000000001e+03	(-1.99212449627550e+01dB,-1.02185348751616e+02Ḟ)	(4.11485814430256e+00dB,-1.21153821861263e+01Ḟ)
1.04712854805091e+03	(-1.95383972582321e+01dB,-1.02743397905357e+02Ḟ)	(4.09769514329087e+00dB,-1.26701337034160e+01Ḟ)
1.09647819614319e+03	(-1.91571266091988e+01dB,-1.03325435905623e+02Ḟ)	(4.07895405399767e+00dB,-1.32487186249101e+01Ḟ)
1.14815362149689e+03	(-1.87775702268511e+01dB,-1.03932273221222e+02Ḟ)	(4.05849756558172e+00dB,-1.38519400891721e+01Ḟ)
1.20226443461742e+03	(-1.83998758024059e+01dB,-1.04564717507476e+02Ḟ)	(4.03617787756827e+00dB,-1.44805980751730e+01Ḟ)
1.25892541179418e+03	(-1.80242020068587e+01dB,-1.05223566991334e+02Ḟ)	(4.01183619916341e+00dB,-1.51354827709785e+01Ḟ)
1.31825673855642e+03	(-1.76507189983436e+01dB,-1.05909606677252e+02Ḟ)	(3.98530224087730e+00dB,-1.58173707624718e+01Ḟ)
1.38038426460290e+03	(-1.72796088147391e+01dB,-1.06623599179601e+02Ḟ)	(3.95639382080333e+00dB,-1.65270158476144e+01Ḟ)
1.44543977074594e+03	(-1.69110658583081e+01dB,-1.07366280551148e+02Ḟ)	(3.92491637875591e+00dB,-1.72651448462099e+01Ḟ)
1.51356124843622e+03	(-1.65452971037747e+01dB,-1.08138349693650e+02Ḟ)	(3.89066276685277e+00dB,-1.80324469905349e+01Ḟ)
1.58489319246113e+03	(-1.61825223875320e+01dB,-1.08940460973050e+02Ḟ)	(3.85341295883772e+00dB,-1.88295665198758e+01Ḟ)
1.65958690743757e+03	(-1.58229745151744e+01dB,-1.09773214951233e+02Ḟ)	(3.81293394093673e+00dB,-1.96570933904469e+01Ḟ)
1.73780082874939e+03	(-1.54668991697784e+01dB,-1.10637146965352e+02Ḟ)	(3.76897980180989e+00dB,-2.05155518319539e+01Ḟ)
1.81970085861000e+03	(-1.51145547568750e+01dB,-1.11532717328638e+02Ḟ)	(3.72129188564206e+00dB,-2.14053905243821e+01Ḟ)
1.90546071796326e+03	(-1.47662119919809e+01dB,-1.12460299266943e+02Ḟ)	(3.66959920248696e+00dB,-2.23269705094685e+01Ḟ)
1.99526231496890e+03	(-1.44221532861452e+01dB,-1.13420167015586e+02Ḟ)	(3.61361904039146e+00dB,-2.32805532611857e+01Ḟ)
2.08929613085406e+03	(-1.40826719015733e+01dB,-1.14412483695254e+02Ḟ)	(3.55305780721794e+00dB,-2.42662885340444e+01Ḟ)
2.18776162394957e+03	(-1.37480708232944e+01dB,-1.15437288947105e+02Ḟ)	(3.48761215617623e+00dB,-2.52842019690724e+01Ḟ)
2.29086765276779e+03	(-1.34186613307005e+01dB,-1.16494486319022e+02Ḟ)	(3.41697041121471e+00dB,-2.63341824496943e+01Ḟ)
2.39883291901951e+03	(-1.30947613395440e+01dB,-1.17583832364469e+02Ḟ)	(3.34081422165647e+00dB,-2.74159711686020e+01Ḟ)
2.51188643150960e+03	(-1.27766932834350e+01dB,-1.18704924391598e+02Ḟ)	(3.25882067701068e+00dB,-2.85291493431408e+01Ḟ)
2.63026799189540e+03	(-1.24647818473516e+01dB,-1.19857191479541e+02Ḟ)	(3.17066456941570e+00dB,-2.96731291965512e+01Ḟ)
2.75422870333819e+03	(-1.21593512642659e+01dB,-1.21039885547487e+02Ḟ)	(3.07602109257561e+00dB,-3.08471449897519e+01Ḟ)
2.88403150312663e+03	(-1.18607224026516e+01dB,-1.22252075124470e+02Ḟ)	(2.97456874938793e+00dB,-3.20502467521519e+01Ḟ)
3.01995172040204e+03	(-1.15692095192848e+01dB,-1.23492640654783e+02Ḟ)	(2.86599259380826e+00dB,-3.32812955463049e+01Ḟ)
3.16227766016841e+03	(-1.12851168797019e+01dB,-1.24760273428126e+02Ḟ)	(2.74998760454452e+00dB,-3.45389623545943e+01Ḟ)
3.31131121482594e+03	(-1.10087351678688e+01dB,-1.26053476750832e+02Ḟ)	(2.62626226897495e+00dB,-3.58217292053206e+01Ḟ)
3.46736850452535e+03	(-1.07403378286096e+01dB,-1.27370570965956e+02Ḟ)	(2.49454223368913e+00dB,-3.71278941449646e+01Ḟ)
3.63078054770105e+03	(-1.04801773738657e+01dB,-1.28709701371055e+02Ḟ)	(2.35457399052094e+00dB,-3.84555791054012e+01Ḟ)
3.80189396320565e+03	(-1.02284818537992e+01dB,-1.30068850639072e+02Ḟ)	(2.20612839699384e+00dB,-3.98027422720874e+01Ḟ)
3.98107170553501e+03	(-9.98545141648419e+00dB,-1.31445854091529e+02Ḟ)	(2.04900410736351e+00dB,-4.11671933011022e+01Ḟ)
4.16869383470339e+03	(-9.75125520853184e+00dB,-1.32838418769349e+02Ḟ)	(1.88303066183497e+00dB,-4.25466123307969e+01Ḟ)
4.36515832240170e+03	(-9.52602864525234e+00dB,-1.34244145833865e+02Ḟ)	(1.70807120526240e+00dB,-4.39385723206535e+01Ḟ)
4.57088189614880e+03	(-9.30987112656516e+00dB,-1.35660555452718e+02Ḟ)	(1.52402475902854e+00dB,-4.53405638711714e+01Ḟ)
4.78630092322643e+03	(-9.10284428958492e+00dB,-1.37085114056124e+02Ḟ)	(1.33082795507166e+00dB,-4.67500224105674e+01Ḟ)
5.01187233627277e+03	(-8.90497091209366e+00dB,-1.38515263576913e+02Ḟ)	(1.12845611773713e+00dB,-4.81643573607466e+01Ḟ)
5.24807460249778e+03	(-8.71623436128536e+00dB,-1.39948450944682e+02Ḟ)	(9.16923798942584e-01dB,-4.95809815536133e+01Ḟ)
5.49540873857630e+03	(-8.53657878324753e+00dB,-1.41382158397752e+02Ḟ)	(6.96284571057104e-01dB,-5.09973414599629e+01Ḟ)
5.75439937337163e+03	(-8.36590989251545e+00dB,-1.42813932940863e+02Ḟ)	(4.66630218009451e-01dB,-5.24109465592180e+01Ḟ)
6.02559586074364e+03	(-8.20409637341903e+00dB,-1.44241414488273e+02Ḟ)	(2.28089312742167e-01dB,-5.38193973889521e+01Ḟ)
6.30957344480200e+03	(-8.05097187071962e+00dB,-1.45662362187110e+02Ḟ)	(-1.91747966644078e-02dB,-5.52204117688740e+01Ḟ)
6.60693448007603e+03	(-7.90633745638992e+00dB,-1.47074678156207e+02Ḟ)	(-2.74966479247000e-01dB,-5.66118484335478e+01Ḟ)
6.91830970918944e+03	(-7.76996451376417e+00dB,-1.48476428247555e+02Ḟ)	(-5.39060733234666e-01dB,-5.79917276805715e+01Ḟ)
7.24435960074998e+03	(-7.64159793080118e+00dB,-1.49865859505282e+02Ḟ)	(-8.11206409923250e-01dB,-5.93582487092049e+01Ḟ)
7.58577575029192e+03	(-7.52095952222654e+00dB,-1.51241414146338e+02Ḟ)	(-1.09112966936962e+00dB,-6.07098034709788e+01Ḟ)
7.94328234724290e+03	(-7.40775156340464e+00dB,-1.52601739971344e+02Ḟ)	(-1.37853755104333e+00dB,-6.20449869432414e+01Ḟ)
8.31763771102680e+03	(-7.30166036660558e+00dB,-1.53945697346594e+02Ḟ)	(-1.67312159040219e+00dB,-6.33626039613258e+01Ḟ)
8.70963589956090e+03	(-7.20235975905442e+00dB,-1.55272362707119e+02Ḟ)	(-1.97456134112370e+00dB,-6.46616725622676e+01Ḟ)
9.12010839355920e+03	(-7.10951448076563e+00dB,-1.56581029255282e+02Ḟ)	(-2.28252782136134e+00dB,-6.59414245113519e+01Ḟ)
9.54992586021446e+03	(-7.02278331954631e+00dB,-1.57871204691609e+02Ḟ)	(-2.59668670181480e+00dB,-6.72013028471942e+01Ḟ)
1.00000000000001e+04	(-6.94182205027915e+00dB,-1.59142606815378e+02Ḟ)	(-2.91670130316787e+00dB,-6.84409572814178e+01Ḟ)
1.04712854805091e+04	(-6.86628604921473e+00dB,-1.60395157067593e+02Ḟ)	(-3.24223527410928e+00dB,-6.96602375244895e+01Ḟ)
1.09647819614320e+04	(-6.79583259731750e+00dB,-1.61628972583582e+02Ḟ)	(-3.57295496450827e+00dB,-7.08591851017285e+01Ḟ)
1.14815362149690e+04	(-6.73012288418383e+00dB,-1.62844357222062e+02Ḟ)	(-3.90853150584828e+00dB,-7.20380241266887e+01Ḟ)
1.20226443461743e+04	(-6.66882365178869e+00dB,-1.64041791775224e+02Ḟ)	(-4.24864253880293e+00dB,-7.31971512310309e+01Ḟ)
1.25892541179418e+04	(-6.61160853273117e+00dB,-1.65221923895346e+02Ḟ)	(-4.59297364332135e+00dB,-7.43371251855558e+01Ḟ)
1.31825673855642e+04	(-6.55815907561562e+00dB,-1.66385557965235e+02Ḟ)	(-4.94121946461954e+00dB,-7.54586564374076e+01Ḟ)
1.38038426460290e+04	(-6.50816547652931e+00dB,-1.67533645218755e+02Ḟ)	(-5.29308455486063e+00dB,-7.65625968638523e+01Ḟ)
1.44543977074594e+04	(-6.46132704550848e+00dB,-1.68667274380604e+02Ḟ)	(-5.64828396032287e+00dB,-7.76499300090758e+01Ḟ)
1.51356124843623e+04	(-6.41735243181869e+00dB,-1.69787662996874e+02Ḟ)	(-6.00654357887197e+00dB,-7.87217619722246e+01Ḟ)
1.58489319246113e+04	(-6.37595961873461e+00dB,-1.70896149645124e+02Ḟ)	(-6.36760029949683e+00dB,-7.97793131286895e+01Ḟ)
1.65958690743758e+04	(-6.33687574454092e+00dB,-1.71994187194526e+02Ḟ)	(-6.73120198180121e+00dB,-8.08239108477993e+01Ḟ)
1.73780082874940e+04	(-6.29983674505172e+00dB,-1.73083337169699e+02Ḟ)	(-7.09710727205041e+00dB,-8.18569832600266e+01Ḟ)
1.81970085861001e+04	(-6.26458685875099e+00dB,-1.74165265371520e+02Ḟ)	(-7.46508529824564e+00dB,-8.28800542100018e+01Ḟ)
1.90546071796327e+04	(-6.23087802139916e+00dB,-1.75241738797501e+02Ḟ)	(-7.83491527262931e+00dB,-8.38947394398619e+01Ḟ)
1.99526231496890e+04	(-6.19846915976922e+00dB,-1.76314623950613e+02Ḟ)	(-8.20638601291470e+00dB,-8.49027440721913e+01Ḟ)
2.08929613085406e+04	(-6.16712541858117e+00dB,-1.77385886565582e+02Ḟ)	(-8.57929541814079e+00dB,-8.59058614171880e+01Ḟ)
2.18776162394958e+04	(-6.13661733208029e+00dB,-1.78457592848524e+02Ḟ)	(-8.95344991255123e+00dB,-8.69059731825036e+01Ḟ)
2.29086765276780e+04	(-6.10671997326613e+00dB,-1.79531912255733e+02Ḟ)	(-9.32866389266298e+00dB,-8.79050511008738e+01Ḟ)
